#  HZ   S   RI   R     50.00 
! Rohde & Schwarz Vector Network Analyzer 
! Rohde-Schwarz,ZNB8-2Port,1311601042102944,2.30
! Created: UTC 6/21/2025, 12:13:54 PM
! freq[Hz]                re:S11                  im:S11                  re:S21                  im:S21                  re:S12                  im:S12                  re:S22                  im:S22
 1.000000000000000E9     8.072245680363410E-1   -2.324977541917462E-1    1.927139182848019E-1   -4.198476096993865E-1    1.594175544551905E-2   -1.688290446060833E-2    4.662603954695914E-1    2.577804793553520E-1
 1.002004008016032E9     7.707696049090771E-1   -1.340709755623245E-1    1.955044522092364E-1   -3.962041213946814E-1    1.187936414911721E-2   -4.089635815222295E-3    4.788807752180220E-1    2.084469123314144E-1
 1.004008016032064E9     7.920678409041673E-1   -1.807170826889135E-1    1.345514084202093E-1   -3.682866828292744E-1    1.852692089487729E-3    3.295246083116551E-2    4.912854096518310E-1    1.654766059511931E-1
 1.006012024048096E9     8.346997558722381E-1   -1.611362680734262E-1    2.161591237384824E-1   -4.338207389796563E-1   -4.457699378032263E-3    2.073646845575176E-2    4.883316834854495E-1    1.243623483051159E-1
 1.008016032064128E9     7.987259987523082E-1   -1.871460805232263E-1    2.003508747992681E-1   -4.084708348720705E-1   -1.873520535386994E-2    2.564800438896824E-2    4.860458791787856E-1    8.035543876913369E-2
 1.010020040080160E9     7.755372953258103E-1   -1.472509076041091E-1    1.805336260185805E-1   -3.807962650446968E-1    1.520124466965482E-2    8.435528117551364E-3    4.762072046916788E-1    3.096723907429308E-2
 1.012024048096192E9     7.674824021773158E-1   -1.885915241480625E-1    1.059855951302142E-1   -4.256353605597278E-1    1.467212405059425E-2    1.510211962739486E-3    4.631362665451408E-1   -1.241818041412876E-2
 1.014028056112225E9     7.592258565854267E-1   -1.699830263603956E-1    1.009774684188258E-1   -3.535088838636435E-1    8.837365418127647E-3    2.481582226937826E-3    4.483943747409335E-1   -4.777348122416793E-2
 1.016032064128257E9     9.049718289731875E-1   -2.166655914156764E-1    1.552230570545959E-1   -4.433684360958510E-1   -1.012249512484501E-2    9.549542119953099E-3    4.369245280806738E-1   -8.170120690108604E-2
 1.018036072144289E9     7.729892350262050E-1   -1.285104250241003E-1    9.412176799613690E-2   -3.871640721971419E-1   -2.177374339462131E-2    1.058151951874135E-2    4.187461018928106E-1   -1.127714029961547E-1
 1.020040080160321E9     7.865577723704045E-1   -2.014184748880072E-1    5.893321515491592E-2   -4.079721370944592E-1    7.176791585159052E-3   -7.410051912747146E-3    3.922438210427234E-1   -1.499626139707459E-1
 1.022044088176353E9     8.566657741467382E-1   -2.183292127515024E-1    6.801580676176516E-2   -3.586286477966934E-1    1.486109347133564E-2   -7.376174296628224E-3    3.691218538698015E-1   -1.852399367583768E-1
 1.024048096192385E9     7.899393930762729E-1   -1.764936437695105E-1    3.990804296670716E-2   -3.790945702143046E-1    2.706647547307090E-2    1.921657799525428E-2    3.470549621601195E-1   -2.162108188004209E-1
 1.026052104208417E9     7.466121403195862E-1   -1.536532439309028E-1    1.770623846505463E-2   -3.718042848593132E-1    9.329392868190359E-3   -6.842326292458968E-3    3.168705919518379E-1   -2.365816463037569E-1
 1.028056112224449E9     7.843106183716818E-1   -2.235824614667672E-1    1.737313766610657E-2   -3.831460452835405E-1    1.397240626040195E-2   -1.205598097240071E-2    2.880169643475028E-1   -2.592984779492439E-1
 1.030060120240481E9     8.201635695484272E-1   -2.464876696035177E-1    3.294193130108523E-2   -3.721668314786500E-1   -1.342934845184018E-2   -7.071751042901931E-3    2.626146894134003E-1   -2.738379629042919E-1
 1.032064128256513E9     7.793589135871455E-1   -2.768854831609128E-1    1.682773446743116E-2   -3.889124889849623E-1    2.053464249822832E-2    2.192418228640219E-2    2.319796316367869E-1   -3.020029665090994E-1
 1.034068136272545E9     7.776908185631620E-1   -1.512343377664515E-1   -1.176221326810934E-2   -3.887798827367670E-1    1.904298040855674E-3    2.468539146185478E-3    1.972900695597955E-1   -3.069718032065247E-1
 1.036072144288577E9     7.326592784977122E-1   -1.407496327493376E-1    9.785589558004786E-3   -3.721694192048765E-1    1.090387625784875E-3    5.937485914714652E-3    1.680505027074882E-1   -3.175108142162391E-1
 1.038076152304609E9     7.844901381303273E-1   -2.181949636517527E-1   -2.945553314508658E-3   -3.761021379931289E-1    2.429197136391060E-2    1.049491795744436E-2    1.294822123569125E-1   -3.317074491503784E-1
 1.040080160320641E9     7.946120153372210E-1   -2.270825450231672E-1   -5.045081698954897E-2   -4.523280911402297E-1   -2.910832689372060E-4    4.869121907211469E-3    9.905524501565864E-2   -3.305294295286612E-1
 1.042084168336673E9     7.645805566131425E-1   -1.604760301652879E-1   -4.382560586188432E-2   -4.176930428027464E-1   -9.861069180409118E-3   -3.594365467996685E-3    6.519517882224482E-2   -3.256878669250652E-1
 1.044088176352705E9     7.287089816846416E-1   -1.993802255158527E-1   -4.395523425654395E-2   -3.798991711718313E-1    9.459649850663901E-3    2.440249505982998E-3    3.384814933261982E-2   -3.282651480627624E-1
 1.046092184368738E9     8.351541869000585E-1   -2.538500353468574E-1   -7.396614380697833E-2   -4.030557162452051E-1   -1.109882204084623E-2    9.845494787530714E-3    8.874415180347872E-3   -3.215907033509483E-1
 1.048096192384770E9     7.667824047796076E-1   -1.894374823314933E-1   -7.413168260571272E-2   -3.998075194078311E-1   -9.604292363679410E-3   -3.364549629949228E-3   -2.164392600477670E-2   -3.123476004941161E-1
 1.050100200400802E9     8.384601359846196E-1   -1.783537049018613E-1   -1.572818519687275E-1   -5.016565548799691E-1   -1.468295641975467E-3   -4.863189482838848E-3   -5.158476172886271E-2   -3.037028181056748E-1
 1.052104208416834E9     7.406839552918402E-1   -1.768880564171613E-1   -9.928609090441977E-2   -3.907566859533020E-1   -2.135049612449215E-3    1.624455606478292E-2   -7.649094273442163E-2   -2.995568722829868E-1
 1.054108216432866E9     8.514732841185225E-1   -1.586987265141954E-1   -6.286436477640148E-2   -4.596160074210744E-1    6.263543405564333E-3   -6.127846305262715E-3   -1.099045151312529E-1   -2.768925278041938E-1
 1.056112224448898E9     8.038326047606071E-1   -2.262123234220245E-1   -1.237379667296851E-1   -4.523046817724630E-1   -5.767656495814885E-3   -1.547680208350106E-2   -1.284306555045932E-1   -2.545697984937731E-1
 1.058116232464930E9     7.228977247516082E-1   -1.773547260100266E-1   -9.536483383626265E-2   -4.716226056851106E-1    5.812660664372346E-4   -1.699821879823752E-2   -1.525115654545301E-1   -2.374653569290151E-1
 1.060120240480962E9     7.561466245562973E-1   -1.572384784089287E-1   -8.011882843876676E-2   -5.078459827427578E-1    1.812158603777544E-3    4.108205753045809E-3   -1.684146598181157E-1   -2.271397534370551E-1
 1.062124248496994E9     7.314908112845940E-1   -1.570028809376326E-1   -1.838051351480674E-1   -4.607944883489353E-1    1.339506025581052E-2    6.941931344483475E-3   -1.932447147661600E-1   -2.073008958436277E-1
 1.064128256513026E9     8.286313623370428E-1   -2.147926136967102E-1   -1.566362054032232E-1   -5.046257269121816E-1    1.261998864861623E-4    3.566093414145105E-4   -2.004127285296992E-1   -1.842714528047809E-1
 1.066132264529058E9     7.368630623960134E-1   -2.256388157943427E-1   -2.236466002503864E-1   -4.584668526489040E-1   -6.057380790965940E-3   -3.007540850999954E-3   -2.064191063467246E-1   -1.604715553026268E-1
 1.068136272545090E9     7.719277880207656E-1   -2.112967931894624E-1   -2.252145524988424E-1   -5.410244687375845E-1    1.253866162559336E-3    5.423438093864373E-4   -2.234556628901480E-1   -1.407330021404890E-1
 1.070140280561122E9     7.850777396214809E-1   -1.605712931046243E-1   -1.838471792740689E-1   -6.178918537841506E-1   -1.417647288488590E-4    1.675091650139848E-3   -2.303223789034727E-1   -1.187836346695411E-1
 1.072144288577154E9     7.634156976190436E-1   -1.992504541395692E-1   -3.565115328174132E-1   -5.715052724376046E-1   -2.267241718742227E-3    9.143610311669627E-4   -2.341165934784035E-1   -9.384247530542307E-2
 1.074148296593186E9     7.839718559019046E-1   -2.002998728683772E-1   -3.759582984021634E-1   -6.775471426754403E-1    8.305560916715566E-3    6.590426465816465E-3   -2.546310641361792E-1   -7.247048891826018E-2
 1.076152304609218E9     7.239712582114195E-1   -2.316867025822453E-1   -3.748620128918432E-1   -6.417641371567926E-1   -4.755164088764488E-5   -1.686530587222295E-3   -2.406215762202734E-1   -4.044442906089567E-2
 1.078156312625251E9     7.113548185771079E-1   -1.948373409002206E-1   -5.119053689809706E-1   -6.517383785580254E-1   -6.308277044509429E-4   -1.771402300358554E-3   -2.339832279775764E-1   -2.050078438241537E-2
 1.080160320641283E9     7.364089469544143E-1   -2.203233877967340E-1   -6.773431555416232E-1   -6.836862348355282E-1    5.207486292146714E-3   -3.024450015825028E-3   -2.321901523936797E-1    1.222611303201945E-2
 1.082164328657315E9     7.525508825395346E-1   -2.214765357022324E-1   -7.519824460861254E-1   -8.002557189170669E-1    7.895956978629941E-4   -1.482800791652411E-3   -2.243046286443667E-1    2.286379195182049E-2
 1.084168336673347E9     7.535347701677754E-1   -2.441559682247022E-1   -9.344805914475960E-1   -6.894961355113406E-1    3.005295646704910E-3    2.207246212674275E-4   -2.237421180310740E-1    4.637348019934260E-2
 1.086172344689379E9     6.784723235315219E-1   -1.435713174425381E-1   -9.304345506384405E-1   -7.290241215943435E-1    6.297338905065659E-3    8.702133502981498E-4   -2.142549257108429E-1    7.039245357677929E-2
 1.088176352705411E9     6.080917915108051E-1   -2.522094073200804E-1   -9.826935385037621E-1   -5.444011454330133E-1    4.402795038703827E-3   -1.844693249908620E-3   -1.936579255879882E-1    8.019164423098603E-2
 1.090180360721443E9     6.053461091494973E-1   -2.730135262767778E-1   -1.153002207155688      -4.918165964205554E-1    2.241387271276468E-3   -3.910729960755592E-4   -1.866554713344026E-1    9.772832343542609E-2
 1.092184368737475E9     6.852255529770324E-1   -2.661590700926867E-1   -1.398397590255771      -6.869428489876405E-1    2.999732894232094E-3   -1.725492495534483E-3   -1.634556999579818E-1    1.131144090621705E-1
 1.094188376753507E9     6.489514062807447E-1   -2.702405799646779E-1   -1.819015377893493      -7.167987093401020E-1    2.620738534692966E-3   -2.382486165210675E-3   -1.446327084984896E-1    1.159996585908921E-1
 1.096192384769539E9     5.571921684272926E-1   -2.326705089439257E-1   -2.125470689999837      -7.135838631423978E-1    6.502271832705315E-3   -4.358408464101567E-3   -1.074692234276987E-1    1.241891149983119E-1
 1.098196392785571E9     5.726461500296940E-1   -3.138345903750706E-1   -3.053423466317483       4.757362908663820E-1    6.725372129249028E-3   -7.978313365284718E-3   -1.068336544196509E-1    8.031808768740387E-2
 1.100200400801603E9     3.913691224725140E-1   -2.472701587187918E-1   -2.375412565411479       1.997304010948187       1.095222382298161E-2   -1.993057872219343E-2   -1.476640889715462E-1    5.247277948639166E-2
 1.102204408817635E9     3.936464314010141E-1   -2.137853268458402E-1   -1.004012630515396       2.470007786639081      -1.952613681512017E-3   -1.569708622579805E-2   -1.544719000808546E-1    1.518784876317723E-1
 1.104208416833667E9     2.460116624523037E-1   -6.566636558663914E-2   -3.351079816024742E-2    1.921956270184264      -1.038678352640509E-2   -4.219276411104976E-3   -8.227410064187730E-2    1.856965211641258E-1
 1.106212424849700E9     3.002225986508674E-1    1.073312989004262E-1   -1.910306497020542E-1    1.593816713421646      -8.504050346976500E-4   -4.069724374055193E-3   -5.991655025140716E-2    1.635414286899299E-1
 1.108216432865732E9     4.306140354276024E-1    2.375861281679817E-1    3.582670135722229E-2    1.455189329300282      -1.448753000132549E-2    4.295254404531361E-3   -2.763281940666585E-2    1.945511644943610E-1
 1.110220440881764E9     5.881603173072620E-1    2.735057280933825E-1    3.721361923503810E-2    1.393196616474606      -5.980677824877203E-3    7.364454997812917E-3    7.974276375389604E-3    1.781407686259923E-1
 1.112224448897796E9     6.539897250339793E-1    2.994425539758815E-1    2.078026094874287E-1    1.231963362781637      -5.442963703898898E-3    4.453788334268303E-3    2.298181841084197E-2    1.649020133293889E-1
 1.114228456913828E9     7.906310312100728E-1    2.016338960966973E-1    3.838120566392098E-1    1.169076997082672      -2.779014360469919E-3    1.067327751331604E-3    4.193048364675041E-2    1.444385734098541E-1
 1.116232464929860E9     7.065922209576515E-1    1.528994894206428E-1    4.750006431016747E-1    8.800451927879313E-1   -6.754751763242747E-4    8.444723388761209E-4    4.997253035787893E-2    1.150371596982007E-1
 1.118236472945892E9     8.396229816644787E-1    1.447458836695911E-1    6.382525565447788E-1    6.174159455785252E-1    3.010025484492915E-5    1.180776928443018E-4    5.537089564277636E-2    9.708423952001370E-2
 1.120240480961924E9     8.863691465085606E-1    9.451861951382778E-2    4.919751382756555E-1    2.360036106077152E-1   -4.137444099742812E-3   -4.964650157815641E-3    6.900894005033324E-2    7.943901328620168E-2
 1.122244488977956E9     8.439111711789954E-1    9.836515355498241E-3    2.273720286440484E-1    2.080310551071519E-1    5.379489411549455E-4    2.390074282469281E-3    6.658977333452999E-2    7.713839719884014E-2
 1.124248496993988E9     8.592529472376629E-1   -8.346239390009651E-3    1.300781171814495E-1    1.404432861355717E-1   -4.113124533382371E-3   -1.420844987328800E-3    9.028086605013690E-2    5.630435863120887E-2
 1.126252505010020E9     8.134858810952443E-1   -3.124240830175143E-2    1.560869442149353E-2    5.568403315316021E-2    5.049218408835810E-3    2.711941398747027E-4    1.008521861865021E-1    1.968417988435415E-2
 1.128256513026052E9     8.298210426690997E-1    3.111715413240130E-2   -2.506522439579099E-1   -2.937742636362844E-2   -1.013857810041853E-2    1.220053845760774E-3    9.463451649495373E-2   -1.897114002087577E-2
 1.130260521042084E9     7.996675134506218E-1   -1.460031398971391E-2   -8.067342121532752E-1    2.344560590597108E-1    3.292239760622024E-4   -6.385275905546565E-3    3.615775704053063E-2   -5.248369688153726E-2
 1.132264529058116E9     8.481127138683304E-1   -2.561313739345322E-2   -3.673789804773278E-1    6.599191337979594E-1   -4.724802924854012E-3   -1.203516399770796E-3    5.189880250911238E-2   -3.271522884187346E-2
 1.134268537074148E9     7.886084068892615E-1   -4.487074517786124E-2   -4.398387856883881E-1    1.106936390153261       6.809992920157643E-3   -3.381461158938267E-3    1.549987933848412E-2   -4.152658062153263E-2
 1.136272545090180E9     8.131738300639506E-1   -1.089001122028800E-1   -3.430579257852509E-1    5.472175755844545E-1   -1.099113410245449E-3   -2.852042874898541E-3    3.594887056012716E-2   -9.669756955154041E-2
 1.138276553106212E9     7.973223467027844E-1   -6.079914215928983E-2    2.961017131299778E-1    7.162138929479384E-1   -2.072932772569659E-2   -1.040385763259945E-2    5.911355174001538E-2   -1.058348899329216E-1
 1.140280561122244E9     8.795101409083259E-1   -2.069657154622644E-2   -7.760670675147695E-1    1.028727574682412       1.190481155297112E-3   -9.438115014978115E-3   -5.084249632082353E-2   -1.404184510692492E-1
 1.142284569138277E9     8.378626862430897E-1   -7.010648763755560E-2    2.850558860365441E-1    4.158561623444578E-1   -4.805608638598166E-3   -4.890118713842245E-3   -1.802263067922015E-2   -1.810148090009316E-1
 1.144288577154309E9     7.823185830170630E-1   -3.453796082824143E-2   -3.113568660888683E-1    2.554463749489269E-1    3.622901462965612E-3    2.123207222655319E-3   -1.184846353700366E-1   -2.181776502344032E-1
 1.146292585170341E9     8.137496054779397E-1    3.279011344445738E-2   -5.692691706707252E-1   -5.979325333145310E-2   -1.299249742167678E-3    1.827669268698315E-3   -2.143039330063898E-1   -2.443153887722941E-1
 1.148296593186373E9     8.196516857869086E-1   -2.493976425559166E-2   -4.260835561659733E-1    4.002493759286261E-1    3.508754700401901E-3   -1.278952073260701E-2   -2.841227392183769E-1   -1.783334082928218E-1
 1.150300601202405E9     7.994936653576324E-1   -7.140137662644206E-3   -1.588838364339241       3.097460640416956E-1   -2.590441504676311E-4    9.332371810070084E-4   -4.864297307974748E-1   -1.061533126995008E-1
 1.152304609218437E9     8.411768435430351E-1   -7.810861369358588E-3   -2.720443855763405       1.206105089332220      -2.154841327544540E-3   -9.068266024601479E-3   -5.767550511944766E-1    2.090897818114588E-1
 1.154308617234469E9     8.024492323174000E-1   -1.003195291512215E-2   -2.426571652997492       3.333181371017491       7.954220277999054E-3   -3.211162759524033E-2   -3.973868050773183E-1    5.516946994243068E-1
 1.156312625250501E9     8.047793083577304E-1   -9.008051807134278E-2   -4.991664539910638E-1    5.767989170302235      -4.360069660162736E-2   -5.427909609254870E-2    2.171348345041509E-1    5.761847997087437E-1
 1.158316633266533E9     8.391153733839437E-1   -2.721499810104484E-2    2.196192257672809       5.459060552619814      -3.616815155767420E-2   -2.044328712317085E-2    2.270343604936608E-1    1.770691844173986E-1
 1.160320641282565E9     7.872867823587082E-1   -4.873045414168501E-2    3.359564797050258       3.378191777055923      -4.582267744200144E-2    1.707742769276235E-3    6.485022200856641E-2   -3.077096828371520E-2
 1.162324649298597E9     8.033193575758272E-1   -4.035315398806200E-2    3.868959994645501       2.875959681042552      -4.433685303190380E-2   -4.626116958843397E-3    4.741943343682525E-4   -8.459616439308199E-2
 1.164328657314629E9     7.542014347723037E-1   -6.761678881598689E-2    4.287023260738708       1.746055517649025      -5.003314994978121E-2   -4.160185448797586E-3   -1.092033553533739E-1   -1.102263987784471E-1
 1.166332665330661E9     8.835255248785029E-1    9.173871815349715E-3    5.107960725294824       1.521895386876511      -2.742200715652934E-2    1.093889825451234E-2   -2.363561471332258E-1    4.893651194930085E-3
 1.168336673346694E9     8.847002110476683E-1   -2.348362378777232E-2    5.593905067138917       2.562782258092253E-1   -4.015960999715042E-2    1.792026932149187E-2   -3.551809798585650E-1    6.280477812636083E-2
 1.170340681362726E9     8.961164104675742E-1   -3.995594507317681E-2    5.654999559251044      -6.817043328497916E-1   -3.878263758229118E-2    3.416867926853271E-2   -4.209093225680938E-1    2.269322507316605E-1
 1.172344689378758E9     7.890276303603486E-1   -5.007478034843164E-2    5.405434675577036      -1.655397071613925      -3.725625114444044E-2    3.945830545399084E-2   -4.060494274806781E-1    3.739032870041715E-1
 1.174348697394790E9     8.464894477059065E-1   -5.677880008069342E-2    5.970839381631204      -3.253686093186887      -5.958013455416053E-2    3.612066808107489E-2   -4.329784768834616E-1    4.868080680280134E-1
 1.176352705410822E9     8.859304201114113E-1   -8.770467461006472E-2    5.175717093415623      -4.849889177312523      -7.425426856856227E-3    6.776920937593728E-2   -5.781095567694206E-2    7.581746959660071E-1
 1.178356713426854E9     8.590792706544139E-1   -9.200700229196618E-2    2.891712395249182      -5.793759001100415      -2.516502693880769E-3    6.487443853732183E-2    1.855822302772462E-1    7.017898655238026E-1
 1.180360721442886E9     8.664153795776803E-1   -1.567924178214981E-1    1.559925175059561      -6.929848689894748       6.838353979558978E-3    6.744472870707420E-2    3.937331166768735E-1    6.189734609635651E-1
